# HZ S RI R 50
50000 -0.21883809409945326 0.39371173344262733 0.8779295129272944 0.35616164203397654 0 0 0 0
99505 -0.07700871824284225 0.23896021618672972 0.9804967646324707 0.20589067866299396 0 0 0 0
149010 -0.04371480571148133 0.16562104139099051 1.0027107789362524 0.14118709947583982 0 0 0 0
198515 -0.032087993218620256 0.126175573376725 1.0098396874345221 0.10717473380874147 0 0 0 0
248020 -0.02678451080659882 0.10204848275455003 1.0128272077007827 0.0865202101912389 0 0 0 0
297525 -0.023945704465333374 0.08574876799495108 1.014324880702871 0.07268925470122772 0 0 0 0
347030 -0.022338334237209233 0.07403278354175365 1.0152256723628508 0.06273051946083337 0 0 0 0
396535 -0.021368185173174698 0.06539019656644807 1.0157157821401477 0.05521296805207392 0 0 0 0
446040 -0.02081679096042922 0.05864823087058922 1.0160539741601717 0.04929618548031925 0 0 0 0
495545 -0.020369080971307598 0.05342388955836689 1.0161616082416238 0.0446823090160375 0 0 0 0
545050 -0.020056783966608007 0.049322476598837046 1.0161953706871545 0.04084006389686259 0 0 0 0
594555 -0.019750643640820718 0.04581708620245654 1.0162146965438543 0.037691397782299 0 0 0 0
644060 -0.019513713713579045 0.04294340577648632 1.0162824565802073 0.03514337066229937 0 0 0 0
693565 -0.01932898364258461 0.04052703065833097 1.0162980955285699 0.03282401017123005 0 0 0 0
743070 -0.019179580732973864 0.038525561122771335 1.0164388939244533 0.03086979317744668 0 0 0 0
792575 -0.018942627698976183 0.03678930895293665 1.0165068392973333 0.029070409870527773 0 0 0 0
842080 -0.01878757762330002 0.03523800871468779 1.0166768541651459 0.02777119923486513 0 0 0 0
891585 -0.018633446012995342 0.03390797287078157 1.016749831471887 0.026383895335940186 0 0 0 0
941090 -0.018494895687872197 0.032756867190168314 1.0168455245510992 0.02513516868498728 0 0 0 0
990595 -0.018285003345007406 0.031746600421129895 1.0169299097257063 0.024035860099588406 0 0 0 0
1040100 -0.017954968002230672 0.030933959863158448 1.016857148143672 0.023111289137625002 0 0 0 0
1089605 -0.01780732914527227 0.030061380185704093 1.0169955793887522 0.022245967193245952 0 0 0 0
1139110 -0.01762396099337859 0.02935213134098929 1.017046588107254 0.0213673701501298 0 0 0 0
1188615 -0.01741643215256909 0.028716479239999065 1.017099573530113 0.020591430616861573 0 0 0 0
1238120 -0.017249416062986557 0.028227558988432048 1.0173300304460655 0.01978866860487507 0 0 0 0
1287625 -0.01701824501965442 0.027645849190228507 1.0173510531603889 0.019228005066808107 0 0 0 0
1337130 -0.01686031806769858 0.02711761031775706 1.0174696524833347 0.018636541215045384 0 0 0 0
1386635 -0.016741145996913565 0.026749043144611056 1.0177427812442457 0.017927720069593166 0 0 0 0
1436140 -0.016550389622730265 0.026378217643384137 1.0177884887198314 0.017388082671178147 0 0 0 0
1485645 -0.01629934773323892 0.026084819658087947 1.0177319376624048 0.01679356593741188 0 0 0 0
1535150 -0.01605104596851488 0.02562739661614397 1.017823308961132 0.016420511205423937 0 0 0 0
1584655 -0.015960983422370047 0.02531119345595236 1.0180305452877472 0.015951287397686628 0 0 0 0
1634160 -0.015821360877173774 0.025080737964990375 1.0180528099816872 0.01547847045913318 0 0 0 0
1683665 -0.015622355757621484 0.02477333265938664 1.018189017742969 0.015082260601281896 0 0 0 0
1733170 -0.01546153404604745 0.02457641226641369 1.0182878290855144 0.014519557442456156 0 0 0 0
1782675 -0.015255342678340805 0.02439703262717142 1.018329377086159 0.014180957822498268 0 0 0 0
1832180 -0.015134367162054593 0.02408765865721681 1.0183374932228009 0.013872369325627638 0 0 0 0
1881685 -0.015011536920420879 0.02391608275336229 1.0186132687022047 0.013413062505026411 0 0 0 0
1931190 -0.0148369144226046 0.023675934382403147 1.018584874769716 0.013096247615439404 0 0 0 0
1980695 -0.01465498190098078 0.02354125233468891 1.0186119370098115 0.012817873211203833 0 0 0 0
2030200 -0.01458368141196019 0.02338741472110858 1.0187885376546169 0.012516858035828029 0 0 0 0
2079705 -0.01440593884236416 0.023372032812419133 1.0188235370444716 0.012004952241285222 0 0 0 0
2129210 -0.01426159383853773 0.023214848928297654 1.0188663850488449 0.011719663460865844 0 0 0 0
2178715 -0.014095221612592732 0.02304631049737244 1.0188580388317132 0.011452632256946945 0 0 0 0
2228220 -0.014026032772797637 0.02294773905797216 1.0189431946543919 0.01119329467562629 0 0 0 0
2277725 -0.013948635789613334 0.022799122530369018 1.0190961047257519 0.01098015723397189 0 0 0 0
2327230 -0.013792346095628856 0.02271122953509291 1.019099280256 0.01065528069155289 0 0 0 0
2376735 -0.013647200863943778 0.02264258027087524 1.019195036001549 0.010413870695832826 0 0 0 0
2426240 -0.013538109158990189 0.02256186289692615 1.0191584986634268 0.010187263959933067 0 0 0 0
2475745 -0.0135127762383629 0.02255463186663902 1.0193192529304602 0.009877116590547122 0 0 0 0
2525250 -0.01329933317923907 0.022500973312594506 1.019181363214492 0.009680729736525793 0 0 0 0
2574755 -0.013259792003630854 0.022423623027787862 1.0193308226653588 0.00939648526047341 0 0 0 0
2624260 -0.013119550592823806 0.02239707708258844 1.0193841020419352 0.009186118439317803 0 0 0 0
2673765 -0.01307346830988081 0.022355811902299506 1.0194486067958202 0.009040231581456068 0 0 0 0
2723270 -0.012867109564582408 0.022383863614091337 1.019481440097516 0.008771947187626212 0 0 0 0
2772775 -0.012767445430804072 0.022340115989890233 1.0196246567226073 0.00856429511243001 0 0 0 0
2822280 -0.012632605191212539 0.022287811938404845 1.0196203659214031 0.008358524344488144 0 0 0 0
2871785 -0.012573566248893326 0.022229508484678903 1.0196205042131856 0.008050711233669513 0 0 0 0
2921290 -0.012524352604718746 0.022173423036846357 1.0197379194260254 0.007857620780035589 0 0 0 0
2970795 -0.01245681974324861 0.022256780724527324 1.0197280253295842 0.007561385857806332 0 0 0 0
3020300 -0.012362902967614133 0.022166172665565642 1.0197218460705817 0.00737558676640687 0 0 0 0
3069805 -0.012244011093436346 0.022218066004779147 1.0197721051598305 0.007008068301385137 0 0 0 0
3119310 -0.012183980689143463 0.022194804154450014 1.01971834931145 0.006755949932574158 0 0 0 0
3168815 -0.012130708077304835 0.022220202560244085 1.0197893237696014 0.006312441291911574 0 0 0 0
3218320 -0.012056240322060853 0.02219093245857081 1.0197670587104675 0.006073376781628438 0 0 0 0
3267825 -0.011925076232452798 0.022155944516182514 1.0197758259918965 0.005747327797740289 0 0 0 0
3317330 -0.011895407249636223 0.02213888433070216 1.0198243820658408 0.005435655949110131 0 0 0 0
3366835 -0.011797253555368757 0.02215974763918156 1.0198792255319897 0.005194712691844498 0 0 0 0
3416340 -0.011738884627520672 0.022227532711098653 1.0198628326065255 0.0048535115768879224 0 0 0 0
3465845 -0.011706831641572728 0.02229966562330255 1.019901258524044 0.004476734707651615 0 0 0 0
3515350 -0.011573368638965737 0.022312552443231715 1.0199140233676853 0.004187575566654482 0 0 0 0
3564855 -0.011447018097721171 0.022301657352785227 1.0199490823250923 0.003921658891289395 0 0 0 0
3614360 -0.011330181494814996 0.02233335964154767 1.0199228455963847 0.0035269984198707865 0 0 0 0
3663865 -0.011221086757655178 0.022322270310138507 1.019955471722736 0.003254208734056328 0 0 0 0
3713370 -0.011212953308994073 0.022359324088448027 1.0200128731145837 0.0028664002565542824 0 0 0 0
3762875 -0.011199051872423715 0.022394467775004506 1.0199698192661384 0.00261109116869919 0 0 0 0
3812380 -0.011156293346341608 0.02243690149354893 1.0199395837391272 0.002254658416131113 0 0 0 0
3861885 -0.010988200418937229 0.022431227058132882 1.0200434282413582 0.0019890745336275007 0 0 0 0
3911390 -0.010936039042671672 0.022530733037527634 1.020012809771907 0.0017815171678368248 0 0 0 0
3960895 -0.010857130848265738 0.022552104254612577 1.019934320698753 0.001458067358930743 0 0 0 0
4010400 -0.010776460612470217 0.022627140065100602 1.020091704569974 0.0013595017419978292 0 0 0 0
4059905 -0.010737897450395783 0.022648290073138923 1.0200177688356171 0.0009314397927150165 0 0 0 0
4109410 -0.010694229160427036 0.02271206920280545 1.0199813615252125 0.0006288039718509325 0 0 0 0
4158915 -0.010662849218408267 0.022737800849517802 1.019874065444858 0.000342638827477471 0 0 0 0
4208420 -0.010547628875160862 0.02276989573420269 1.0199562544649718 4.282936261037137e-05 0 0 0 0
4257925 -0.010549719095583948 0.022839076793168645 1.0199889203935788 -0.00022554652010031492 0 0 0 0
4307430 -0.010442366219088013 0.022897287663497107 1.019988087848939 -0.000551634489301244 0 0 0 0
4356935 -0.010327780937429708 0.02292759558415905 1.0200253164963309 -0.0007833718042727968 0 0 0 0
4406440 -0.010228324936310566 0.023007444740089308 1.0200246022645452 -0.0010330074317551768 0 0 0 0
4455945 -0.010262354506535353 0.023162969914261262 1.0200235585076605 -0.0012748201983163179 0 0 0 0
4505450 -0.010225393990658839 0.023213810242188125 1.0200308322626082 -0.0015972810467758277 0 0 0 0
4554955 -0.010130260869080396 0.023242591372929694 1.0199911779082544 -0.0018356072604200746 0 0 0 0
4604460 -0.010139789030264782 0.023278507639437875 1.0199823635925247 -0.0021012326922337184 0 0 0 0
4653965 -0.010012192956093713 0.023279342832569425 1.019990330637208 -0.0024659728052712146 0 0 0 0
4703470 -0.009943624100373466 0.02335381680713065 1.020060099789311 -0.002746469409454219 0 0 0 0
4752975 -0.009888255806661287 0.02344414692060431 1.0199944048915692 -0.00296737318550594 0 0 0 0
4802480 -0.009816368833481507 0.02350171695164715 1.0199893895668197 -0.0032557333880214125 0 0 0 0
4851985 -0.009827885864769879 0.023563962927819027 1.0199507954626865 -0.0035000981587739 0 0 0 0
4901490 -0.00973149304478661 0.02360956583658476 1.0199670062041377 -0.0037693771535677444 0 0 0 0
4950995 -0.009660002226483647 0.023678652097455916 1.019956615873414 -0.0040583840317610555 0 0 0 0
5000500 -0.00966753916361601 0.023756551915084984 1.0198954242793137 -0.004286935485398983 0 0 0 0
5050005 -0.009608822253950287 0.023850023958533965 1.019932860194164 -0.004524379126020142 0 0 0 0
5099510 -0.009607353727025729 0.023913992583472782 1.0198627903154631 -0.004739745426222837 0 0 0 0
5149015 -0.009465285313361516 0.02398571117071949 1.0199615752178224 -0.00500938559336203 0 0 0 0
5198520 -0.009461310015603326 0.02407019991694714 1.0198789934551893 -0.005236748224080921 0 0 0 0
5248025 -0.009373495120134735 0.02419416763516593 1.0199593338871464 -0.00553339249833536 0 0 0 0
5297530 -0.00935952014028816 0.02426319632873385 1.0199693782295842 -0.005741143005049237 0 0 0 0
5347035 -0.009312244175257592 0.024303541633027694 1.0199097772068912 -0.005993137786853536 0 0 0 0
5396540 -0.009272500714981872 0.024411442681655078 1.0198484438530264 -0.0061750050187182794 0 0 0 0
5446045 -0.009198357997985292 0.024466474723832284 1.0198585393361195 -0.006530968642668024 0 0 0 0
5495550 -0.00913967937852751 0.0245412906791604 1.0198418709558157 -0.006805501485325135 0 0 0 0
5545055 -0.009146047077386782 0.02458442065598769 1.0197868676019737 -0.006993695561033873 0 0 0 0
5594560 -0.0091022823258381 0.024687418366411945 1.0198235774198547 -0.007264866442559762 0 0 0 0
5644065 -0.009060546426566556 0.024823907828289374 1.0198142527401879 -0.0074911807560558066 0 0 0 0
5693570 -0.008951590371051277 0.02482535174032175 1.0198130125037874 -0.007693225908822885 0 0 0 0
5743075 -0.0089273848164355 0.024944809052516215 1.0198061853679576 -0.008030224947276565 0 0 0 0
5792580 -0.008835454389100708 0.025030641955412037 1.0197393543746847 -0.008273605898216933 0 0 0 0
5842085 -0.008819695868887964 0.02508154995695713 1.0197637525415 -0.008449862878952377 0 0 0 0
5891590 -0.008771530626623178 0.025233612661985327 1.019705291883921 -0.008781534539197566 0 0 0 0
5941095 -0.008753354185122571 0.02530558997008604 1.0197132704019565 -0.008995877372347137 0 0 0 0
5990600 -0.008753402569890208 0.025368911384253075 1.0197399273633205 -0.009188662275434842 0 0 0 0
6040105 -0.008642939215908571 0.025433438646718036 1.0197150737875134 -0.009355306481856774 0 0 0 0
6089610 -0.008601252245638735 0.025564380671551312 1.0196326702472907 -0.009662042926200216 0 0 0 0
6139115 -0.008579703236918687 0.025636695981150145 1.019711459044429 -0.00995606906645924 0 0 0 0
6188620 -0.008512445786958322 0.02569736274151025 1.0196756183145044 -0.01011431243956532 0 0 0 0
6238125 -0.008459194298457342 0.02578669641450988 1.0196446335275122 -0.010360560104237295 0 0 0 0
6287630 -0.00840889380614898 0.025891792593234698 1.0196389929683631 -0.010627251167149175 0 0 0 0
6337135 -0.008356391129031252 0.02593411248263596 1.019569894516399 -0.010819737759643396 0 0 0 0
6386640 -0.008388173274479157 0.026135075868945614 1.0195661264284814 -0.011008130602775897 0 0 0 0
6436145 -0.00831179634801905 0.026106170790168307 1.0195781748414203 -0.011331747935448255 0 0 0 0
6485650 -0.008227978399218003 0.02624747343567642 1.0196003428376024 -0.011501709621504208 0 0 0 0
6535155 -0.00824099273460619 0.026327575430991994 1.019530781742315 -0.011776252129666643 0 0 0 0
6584660 -0.008265609600161547 0.026450488468013247 1.0195224552813926 -0.01199455014794444 0 0 0 0
6634165 -0.008201494919399905 0.026468960984214914 1.0195329137259816 -0.01222811690611917 0 0 0 0
6683670 -0.008057127447878553 0.026567984164055192 1.019458549807007 -0.012497006124152749 0 0 0 0
6733175 -0.008023221943287594 0.026724660063377738 1.0194312100069074 -0.012674423726686212 0 0 0 0
6782680 -0.008050876904417083 0.026881799402836342 1.0194670181406567 -0.012982456007812407 0 0 0 0
6832185 -0.007970552694544532 0.026841871367749997 1.0194544867016313 -0.013223285234752085 0 0 0 0
6881690 -0.007913027189997075 0.026967402518157664 1.0194152354822685 -0.013363229204843135 0 0 0 0
6931195 -0.007912519954546888 0.027037587265702833 1.0193951686185148 -0.013587803322730742 0 0 0 0
6980700 -0.007873974217351214 0.027127456743987904 1.0194140919166415 -0.013815311220235087 0 0 0 0
7030205 -0.007824855914501928 0.02726316350840828 1.0193180817835945 -0.014083248147428649 0 0 0 0
7079710 -0.007813844834165234 0.02736069014271595 1.0193450973783005 -0.014290516926779398 0 0 0 0
7129215 -0.007713530703910092 0.02746957247914486 1.0193902504993135 -0.014578431548045332 0 0 0 0
7178720 -0.007708787965144025 0.02748812455461897 1.0193107201196574 -0.014680997170445909 0 0 0 0
7228225 -0.007628154208446136 0.027602369181870572 1.0192911360869399 -0.014948977701388644 0 0 0 0
7277730 -0.007609041858621556 0.027732830826754068 1.019251732594928 -0.015160090810094697 0 0 0 0
7327235 -0.0075729243064317315 0.02783465426562384 1.0191836122753914 -0.015426138011373165 0 0 0 0
7376740 -0.007538186921284089 0.02794087576524543 1.0192130193143774 -0.015671323153535754 0 0 0 0
7426245 -0.007572687375385865 0.028015465790887404 1.0192186230916418 -0.015835150214214923 0 0 0 0
7475750 -0.0075635512733119945 0.028212612386678267 1.0191406930876443 -0.016111071084465113 0 0 0 0
7525255 -0.007425141239731866 0.028185783129166427 1.0191855403779113 -0.0162963003649577 0 0 0 0
7574760 -0.007385480833510663 0.02838451328467351 1.0191590246987756 -0.016568804875503437 0 0 0 0
7624265 -0.007333630326199189 0.028459505267654634 1.0190626957307647 -0.01678439032614686 0 0 0 0
7673770 -0.007270709711845762 0.028562491320543802 1.0190459395507412 -0.01699868811418778 0 0 0 0
7723275 -0.007275860748904104 0.028679799251588027 1.0190640102306938 -0.017261927621099835 0 0 0 0
7772780 -0.007272841605532603 0.028753157075683926 1.0190643302286009 -0.017474439989464595 0 0 0 0
7822285 -0.007229654329202766 0.02881451482697226 1.019066639267035 -0.01767678345568258 0 0 0 0
7871790 -0.007187082651644393 0.02891492331041486 1.0190665060763526 -0.017855190830095527 0 0 0 0
7921295 -0.00714974390088001 0.029020289484079653 1.0189888148408985 -0.018085658038064868 0 0 0 0
7970800 -0.007131383499215324 0.029147910145660972 1.0189828118754092 -0.018314777283658885 0 0 0 0
8020305 -0.007077412840006449 0.029187999359345112 1.0189915844354338 -0.01852829633741407 0 0 0 0
8069810 -0.0070288455260938566 0.02935481916923634 1.0189819750150508 -0.018735218384346247 0 0 0 0
8119315 -0.007006730000717636 0.029467980195759857 1.0188874896404392 -0.01900037303770324 0 0 0 0
8168820 -0.006976086107501525 0.02952951846580411 1.018835287450376 -0.0192455142303543 0 0 0 0
8218325 -0.006893599591849856 0.029620144792730296 1.0188989099751156 -0.019399074684009972 0 0 0 0
8267830 -0.006893996923615966 0.02974904011897489 1.0188263208350228 -0.01965547327128194 0 0 0 0
8317335 -0.00688828331004916 0.029860345315806405 1.0187878997811322 -0.0198383637486376 0 0 0 0
8366840 -0.006843896729035297 0.030022821048503793 1.0188148706215991 -0.02012337115213181 0 0 0 0
8416345 -0.0067825542846967 0.030093126274554297 1.018821356364302 -0.020333339946831945 0 0 0 0
8465850 -0.006783989869310495 0.030193377991754606 1.0187382461516161 -0.020501856310322104 0 0 0 0
8515355 -0.00677172066928465 0.03025517962188505 1.018765341092471 -0.020691781955041698 0 0 0 0
8564860 -0.006719503642594335 0.030386271779226395 1.0187311045413572 -0.020938113805740174 0 0 0 0
8614365 -0.006619018986358871 0.03044596337085569 1.0186246857183034 -0.02118708266239968 0 0 0 0
8663870 -0.006549558027879455 0.03050887751005146 1.0185212285008993 -0.021329662943226156 0 0 0 0
8713375 -0.006527656762684399 0.030677110679215264 1.0185922958241436 -0.0215773245990513 0 0 0 0
8762880 -0.006584108414310866 0.030747751388590663 1.0186393009705783 -0.021660963597918543 0 0 0 0
8812385 -0.006449658913649858 0.030862774875633138 1.0185400413695704 -0.02200234102690812 0 0 0 0
8861890 -0.006450708457702162 0.03096547177247564 1.018520370939263 -0.022103083224694176 0 0 0 0
8911395 -0.006446678178262015 0.03110945836461832 1.0183253504189533 -0.022349862206341244 0 0 0 0
8960900 -0.006392810687071032 0.031248246690085028 1.0184558088926607 -0.022688454466080362 0 0 0 0
9010405 -0.006374956818626331 0.03127758580818324 1.0183309871862498 -0.02280577444601476 0 0 0 0
9059910 -0.006300732261345124 0.031383007889875476 1.018381479696631 -0.023073514321134893 0 0 0 0
9109415 -0.006274434533787955 0.03150926481943896 1.0182698205321918 -0.023242999677176045 0 0 0 0
9158920 -0.006259587118392846 0.0316494438105089 1.0182464431596097 -0.023442793903320977 0 0 0 0
9208425 -0.006258280439627049 0.03171359610529265 1.0183228622829728 -0.023658642751280434 0 0 0 0
9257930 -0.00617109337298954 0.0318196005870456 1.0183615099135952 -0.02385265244092948 0 0 0 0
9307435 -0.006120503541069076 0.031931844722424746 1.0181804319447783 -0.024060689054642825 0 0 0 0
9356940 -0.006209561841607677 0.03202594219476999 1.0182142240970433 -0.024250684974303424 0 0 0 0
9406445 -0.006128961763042005 0.03216150021283955 1.018199522049809 -0.024475766514683577 0 0 0 0
9455950 -0.00611246871713241 0.03231977386293557 1.0181733314873218 -0.024711983769904453 0 0 0 0
9505455 -0.006020990006899902 0.03235662915914296 1.018128989506092 -0.024969890209335325 0 0 0 0
9554960 -0.006058348037338433 0.03245290961712723 1.0181590940184042 -0.025072017639837192 0 0 0 0
9604465 -0.00602887290062073 0.03262539933984631 1.0180982416890416 -0.025353078743515018 0 0 0 0
9653970 -0.005970954774962986 0.03267320914437186 1.0180393728966206 -0.02557183762914783 0 0 0 0
9703475 -0.005851973666773298 0.03276222978035304 1.0179544216034662 -0.02577552059536894 0 0 0 0
9752980 -0.005851476661239741 0.03290115131187734 1.017903461497299 -0.02600815523765149 0 0 0 0
9802485 -0.0057430524097900875 0.03303356172061815 1.01781166889039 -0.026161682688547884 0 0 0 0
9851990 -0.005773369517467282 0.03312159520532224 1.0178589787284749 -0.02637587197197831 0 0 0 0
9901495 -0.005767872693899459 0.0332429953506675 1.0179027223673403 -0.026617699304634798 0 0 0 0
9951000 -0.005736298746530054 0.03336519930414712 1.0177954052732754 -0.026866277770960945 0 0 0 0
10000505 -0.005698340379930953 0.03346879242088308 1.0178089480529973 -0.02702514892490245 0 0 0 0
10050010 -0.005629152372780861 0.033537249551810144 1.0177870995237401 -0.02734437704781735 0 0 0 0
